#!/bin/bash
#vim:set sw=4 ts=4 et:
help()
{
 echo "0 : set_off "
 echo "1 : set_red "
 echo "2 : set_green "
 echo "3 : set_blue "
 echo "4 : read_ledNum"
 exit 0
}
err()
{
  echo "$1"
  exit 1
}
read_ledNum()
{
  i2ctransfer -f -y 0 w3@0x67 0x00 0x1D 0x0C
  i2ctransfer -f -y 0 w1@0x67 0x08 r1
  return $?
}
set_setting()
{
   i2cset -f -y 0 0x67 0x09 0x80
   i2cset -f -y 0 0x67 0x0A 0x21
   i2cset -f -y 0 0x67 0x01 0x01
   i2cset -f -y 0 0x67 0x09 0x81
   i2cset -f -y 0 0x67 0x0A 0x60
}

set_application()
{
  i2cset -f -y 0 0x67 0x09 0x80
  i2cset -f -y 0 0x67 0x0A 0x2F
  i2cset -f -y 0 0x67 0x01 0x01
}

set_red()
{
  for i in {1..12}
  do
  i2ctransfer -f -y 0 w8@0x67 0x03  0x06 0xff 0x00 0x00 0xff 0x00 0x00
  done
}
set_green()
{
  for i in {1..12}
  do
  i2ctransfer -f -y 0 w8@0x67 0x03  0x06 0x00 0xff 0x00 0x00 0xff 0x00
  done
}
set_blue()
{
  for i in {1..12}
  do
  i2ctransfer -f -y 0 w8@0x67 0x03  0x06 0x00 0x00 0xff 0x00 0x00 0xff
  done
}
set_off()
{
  for i in {1..12}
  do
  i2ctransfer -f -y 0 w8@0x67 0x03  0x06 0x00 0x00 0x00 0x00 0x00 0x00
  done
}

set_single_led()
{
  start=$(date +%s)
  echo $start
  for((i=0;i<20;i++));
  do
  let my_addr=$i*3+0x60
  echo $my_addr

  i2cset -f -y 0 0x67 0x09 0x80
  i2cset -f -y 0 0x67 0x0A 0x21
  i2cset -f -y 0 0x67 0x01 0x01
  
  i2cset -f -y 0 0x67 0x09 0x81
  i2cset -f -y 0 0x67 0x0A $my_addr
  i2ctransfer -f -y 0 w5@0x67 0x03 0x03 0x00 0x00 0xff
  
  i2cset -f -y 0 0x67 0x09 0x80
  i2cset -f -y 0 0x67 0x0A 0x2F
  i2cset -f -y 0 0x67 0x01 0x01

  ####################################################

  i2cset -f -y 0 0x67 0x09 0x80
  i2cset -f -y 0 0x67 0x0A 0x21
  i2cset -f -y 0 0x67 0x01 0x01

  i2cset -f -y 0 0x67 0x09 0x81
  i2cset -f -y 0 0x67 0x0A $my_addr
  i2ctransfer -f -y 0 w5@0x67 0x03 0x03 0x00 0x00 0x00

  i2cset -f -y 0 0x67 0x09 0x80
  i2cset -f -y 0 0x67 0x0A 0x2F
  i2cset -f -y 0 0x67 0x01 0x01
  done

  end=$(date +%s)
  echo $end
  dif=$[ $end - $start ]
  echo $dif
}

target_led_red=$2
target_led_blue=$3
target_led_green=$4
target_led=$5

set_single_led2()
{
	let led_addr=$target_led*3+0x60
	echo $led_addr

	i2cset -f -y 0 0x67 0x09 0x80	#Set Address High byte
	i2cset -f -y 0 0x67 0x0A 0x21	#Set Address Low byte
	i2cset -f -y 0 0x67 0x01 0x01	#Set Static effect

	i2cset -f -y 0 0x67 0x09 0x81
	i2cset -f -y 0 0x67 0x0A $led_addr
	i2ctransfer -f -y 0 w5@0x67 0x03 0x03 $target_led_red $target_led_green $target_led_blue

	i2cset -f -y 0 0x67 0x09 0x80	#Set Address High byte
	i2cset -f -y 0 0x67 0x0A 0x2F	#Set Address Low byte
	i2cset -f -y 0 0x67 0x01 0x01	#Setting Apply
}

set_all_led()
{
	led_count=`read_ledNum`
	echo $led_count
	for((i=0;i<$led_count;i++));
  	do
		let led_addr=$i*3+0x60

		i2cset -f -y 0 0x67 0x09 0x80	#Set Address High byte
		i2cset -f -y 0 0x67 0x0A 0x21	#Set Address Low byte
		i2cset -f -y 0 0x67 0x01 0x01	#Set Static effect

		i2cset -f -y 0 0x67 0x09 0x81
		i2cset -f -y 0 0x67 0x0A $led_addr
		i2ctransfer -f -y 0 w5@0x67 0x03 0x03 $target_led_red $target_led_blue $target_led_green

		i2cset -f -y 0 0x67 0x09 0x80	#Set Address High byte
		i2cset -f -y 0 0x67 0x0A 0x2F	#Set Address Low byte
		i2cset -f -y 0 0x67 0x01 0x01	#Setting Apply
	done
}

set_all_led_blue()
{
	led_count=`read_ledNum`
	echo $led_count

	i2cset -f -y 0 0x67 0x09 0x80	#Set Address High byte
	i2cset -f -y 0 0x67 0x0A 0x21	#Set Address Low byte
	i2cset -f -y 0 0x67 0x01 0x01	#Set Static effect

	for((i=0;i<$led_count;i++));
  	do
		let led_addr=$i*3+0x60

		i2cset -f -y 0 0x67 0x09 0x81
		i2cset -f -y 0 0x67 0x0A $led_addr
		i2ctransfer -f -y 0 w5@0x67 0x03 0x03 0x00 0x00 0xFF
	done

	i2cset -f -y 0 0x67 0x09 0x80	#Set Address High byte
	i2cset -f -y 0 0x67 0x0A 0x2F	#Set Address Low byte
	i2cset -f -y 0 0x67 0x01 0x01	#Setting Apply
}


set_all_led_green()
{
	led_count=`read_ledNum`
	echo $led_count

	i2cset -f -y 0 0x67 0x09 0x80	#Set Address High byte
	i2cset -f -y 0 0x67 0x0A 0x21	#Set Address Low byte
	i2cset -f -y 0 0x67 0x01 0x01	#Set Static effect

	for((i=0;i<$led_count;i++));
  	do
		let led_addr=$i*3+0x60

		i2cset -f -y 0 0x67 0x09 0x81
		i2cset -f -y 0 0x67 0x0A $led_addr
		i2ctransfer -f -y 0 w5@0x67 0x03 0x03 0x00 0xFF 0x00

	done
	i2cset -f -y 0 0x67 0x09 0x80	#Set Address High byte
	i2cset -f -y 0 0x67 0x0A 0x2F	#Set Address Low byte
	i2cset -f -y 0 0x67 0x01 0x01	#Setting Apply
}

while [ -n "$1" ];do
case $1 in
  0) set_setting;set_off;set_application;exit 0;;
  1) set_setting;set_red;set_application;exit 0;;
  2) set_setting;set_green;set_application;exit 0;;
  3) set_setting;set_blue;set_application;exit 0;;
  4) read_ledNum;exit 0;;
  5) set_single_led2;exit 0;;
  6) set_all_led;exit 0;;
  7) set_all_led_blue;exit 0;;
  8) set_all_led_green;exit 0;;
  *) help;
 # *) break;;
esac
done


#read led number
#i2ctransfer -f -y 0 w3@0x67 0x00 0x1D 0x0C
#i2ctransfer -f -y 0 w1@0x67 0x08 r1
#i2cget -f -y 0 0x67 0x08


#power led on
#i2cset -f -y 0 0x2b 0x12 1
#power led off
#i2cset -f -y 0 0x2b 0x12 0

#remove old NVIDIA Driver
#sudo apt-get purge nvidia-cuda
#sudo apt-get purge nvidia-*

#stop gdm type Desktop system
#sudo /etc/init.d/gdm stop
#sudo /etc/init.d/gdm status

#stop light type Desktop system
#sudo /etc/init.d/lightdm stop
#sudo /etc/init.d/lightdm status


#install i2c-tools
#apt-get install i2c-tools


